! NEC Compound Semiconductor Devices Ltd.
! 14. November 2002
! NESG2031M05
! NPN SiGe Transistor
! Vce = 2 V Ic = 15 mA
#  GHz  S  MA  R  50
!      f            S11                 S21                 S12                 S22
!     GHz       MAG       ANG       MAG       ANG       MAG       ANG       MAG       ANG
     0.100     0.783   -15.633    29.170   168.171     0.008    81.953     0.963   -10.183
     0.200     0.752   -29.170    27.794   157.954     0.015    72.119     0.912   -18.933
     0.300     0.715   -42.059    26.085   148.838     0.020    67.154     0.857   -26.323
     0.400     0.670   -53.865    24.233   140.676     0.025    62.446     0.798   -32.711
     0.500     0.629   -64.455    22.339   133.524     0.029    59.136     0.741   -38.154
     0.600     0.541   -72.716    20.093   126.352     0.032    54.969     0.652   -42.274
     0.700     0.517   -82.314    18.562   121.198     0.035    53.618     0.608   -46.099
     0.800     0.471   -91.025    17.117   116.177     0.037    51.275     0.570   -50.018
     0.900     0.455   -99.207    15.914   112.199     0.039    50.682     0.535   -52.353
     1.000     0.435  -106.367    14.774   108.301     0.041    49.340     0.504   -54.851
     1.100     0.417  -112.338    13.739   104.967     0.043    49.497     0.475   -56.944
     1.200     0.396  -119.859    12.864   101.674     0.045    48.964     0.453   -58.863
     1.300     0.380  -125.794    12.062    98.880     0.047    48.842     0.431   -60.376
     1.400     0.380  -131.822    11.377    96.115     0.048    48.547     0.415   -61.615
     1.500     0.371  -138.227    10.722    93.522     0.050    48.576     0.398   -62.934
     1.600     0.362  -143.487    10.139    91.178     0.052    48.647     0.384   -64.027
     1.700     0.357  -148.853     9.615    88.830     0.053    48.711     0.371   -65.092
     1.800     0.354  -152.946     9.151    86.681     0.055    48.864     0.359   -66.003
     1.900     0.348  -158.573     8.702    84.500     0.056    48.865     0.348   -67.006
     2.000     0.351  -162.753     8.312    82.609     0.058    48.911     0.339   -67.927
     2.100     0.350  -165.373     7.958    80.704     0.060    48.789     0.331   -68.871
     2.200     0.352  -170.205     7.615    78.736     0.062    48.854     0.323   -69.870
     2.300     0.350  -173.628     7.307    76.958     0.063    48.827     0.315   -70.581
     2.400     0.348  -177.345     7.020    75.270     0.065    48.739     0.309   -71.300
     2.500     0.351   179.163     6.760    73.646     0.067    48.361     0.303   -72.028
     2.600     0.353   176.746     6.515    72.033     0.068    48.290     0.298   -73.108
     2.700     0.354   173.862     6.287    70.479     0.070    48.528     0.293   -74.250
     2.800     0.368   170.358     6.088    68.904     0.071    48.642     0.287   -75.052
     2.900     0.363   167.729     5.892    67.292     0.073    47.798     0.282   -75.606
     3.000     0.362   165.441     5.697    65.762     0.075    47.918     0.278   -76.396
     3.100     0.366   163.250     5.527    64.411     0.077    47.985     0.273   -77.346
     3.200     0.368   160.827     5.366    62.881     0.078    47.893     0.270   -78.012
     3.300     0.373   158.596     5.219    61.557     0.081    47.629     0.266   -78.902
     3.400     0.377   156.393     5.071    60.051     0.081    47.497     0.263   -79.778
     3.500     0.378   154.829     4.930    58.797     0.083    47.557     0.260   -80.534
     3.600     0.380   152.692     4.803    57.333     0.085    47.050     0.257   -81.552
     3.700     0.384   150.731     4.689    55.941     0.087    46.711     0.255   -82.303
     3.800     0.384   148.497     4.568    54.609     0.088    46.526     0.252   -83.435
     3.900     0.391   147.240     4.464    53.243     0.090    46.303     0.249   -84.213
     4.000     0.393   145.577     4.359    51.971     0.092    46.226     0.246   -84.927
     4.100     0.400   143.700     4.269    50.689     0.093    45.756     0.243   -85.693
     4.200     0.399   141.313     4.157    49.409     0.096    45.315     0.240   -86.275
     4.300     0.407   140.195     4.083    48.012     0.097    44.784     0.238   -86.955
     4.400     0.407   138.975     3.999    46.761     0.099    44.534     0.236   -87.624
     4.500     0.413   136.729     3.925    45.500     0.101    44.156     0.234   -88.347
     4.600     0.417   134.843     3.846    44.222     0.102    43.709     0.232   -89.109
     4.700     0.420   133.229     3.777    42.872     0.104    43.230     0.230   -89.970
     4.800     0.425   131.548     3.697    41.457     0.105    42.796     0.229   -90.501
     4.900     0.425   129.822     3.639    40.256     0.107    42.265     0.227   -91.375
     5.000     0.430   127.921     3.563    38.896     0.109    41.990     0.225   -92.198
     5.100     0.438   126.410     3.498    37.654     0.110    41.389     0.223   -92.942
     5.200     0.440   124.472     3.447    36.286     0.112    40.992     0.221   -93.795
     5.300     0.444   122.833     3.379    35.085     0.113    40.112     0.219   -94.665
     5.400     0.452   120.897     3.325    33.747     0.115    39.689     0.218   -95.597
     5.500     0.455   119.016     3.271    32.410     0.116    39.121     0.216   -96.415
     5.600     0.461   117.718     3.215    31.131     0.117    38.541     0.214   -97.579
     5.700     0.463   115.674     3.167    29.867     0.119    38.019     0.213   -98.514
     5.800     0.471   113.828     3.111    28.491     0.120    37.334     0.211   -99.803
     5.900     0.475   112.392     3.058    27.045     0.122    36.824     0.209  -101.248
     6.000     0.479   110.242     3.020    25.837     0.123    36.183     0.205  -101.958
     6.100     0.488   108.421     2.975    24.239     0.124    35.459     0.202  -103.594
     6.200     0.492   107.354     2.923    23.081     0.126    34.779     0.200  -105.211
     6.300     0.498   105.622     2.883    21.777     0.127    34.153     0.198  -106.725
     6.400     0.501   104.314     2.834    20.531     0.128    33.321     0.197  -108.458
     6.500     0.509   103.003     2.794    19.149     0.129    32.709     0.195  -110.257
     6.600     0.515   101.658     2.744    17.755     0.130    31.939     0.194  -112.110
     6.700     0.525   100.421     2.703    16.546     0.131    31.198     0.193  -113.968
     6.800     0.532    99.398     2.661    15.236     0.132    30.639     0.192  -116.049
     6.900     0.541    97.768     2.618    14.016     0.132    29.966     0.191  -118.041
     7.000     0.547    96.662     2.581    12.698     0.134    29.260     0.189  -120.092
     7.100     0.551    95.362     2.544    11.387     0.134    28.630     0.188  -122.275
     7.200     0.558    94.710     2.504    10.148     0.135    27.946     0.186  -124.185
     7.300     0.565    93.032     2.461     9.054     0.136    27.344     0.186  -126.152
     7.400     0.568    92.385     2.425     7.944     0.136    26.747     0.185  -128.061
     7.500     0.577    91.228     2.389     6.644     0.137    26.200     0.185  -130.254
     7.600     0.581    90.093     2.351     5.277     0.138    25.553     0.184  -131.785
     7.700     0.587    89.580     2.312     4.166     0.138    24.949     0.183  -133.629
     7.800     0.595    88.287     2.283     3.080     0.139    24.499     0.182  -135.077
     7.900     0.600    87.366     2.251     2.159     0.139    24.130     0.183  -135.774
     8.000     0.609    85.933     2.224     1.032     0.140    23.330     0.185  -136.957
     8.100     0.608    85.268     2.197    -0.274     0.141    22.793     0.187  -138.499
     8.200     0.614    84.617     2.170    -1.360     0.141    22.221     0.188  -140.155
     8.300     0.617    83.113     2.136    -2.693     0.142    21.542     0.188  -141.981
     8.400     0.625    82.371     2.108    -3.792     0.143    20.720     0.187  -143.096
     8.500     0.628    80.862     2.083    -5.187     0.144    20.243     0.187  -144.579
     8.600     0.631    79.957     2.058    -6.263     0.144    19.982     0.186  -145.700
     8.700     0.634    78.883     2.033    -7.460     0.145    19.069     0.185  -147.016
     8.800     0.640    78.018     2.006    -8.615     0.145    18.563     0.184  -147.996
     8.900     0.646    77.131     1.977    -9.689     0.146    17.822     0.183  -148.847
     9.000     0.653    75.974     1.960   -10.725     0.147    17.188     0.183  -150.055
     9.100     0.659    75.208     1.937   -12.040     0.148    16.564     0.183  -151.045
     9.200     0.657    74.498     1.915   -13.198     0.148    15.868     0.181  -152.229
     9.300     0.661    73.780     1.892   -14.434     0.149    15.095     0.182  -153.474
     9.400     0.664    73.215     1.871   -15.822     0.149    14.231     0.180  -154.936
     9.500     0.661    71.660     1.854   -16.842     0.150    13.605     0.180  -156.229
     9.600     0.675    71.150     1.837   -18.066     0.150    12.659     0.179  -158.015
     9.700     0.678    70.103     1.815   -19.281     0.151    11.916     0.176  -160.025
     9.800     0.682    69.492     1.792   -20.672     0.151    11.103     0.174  -161.637
     9.900     0.683    69.087     1.775   -21.722     0.151    10.266     0.173  -163.551
    10.000     0.690    68.013     1.756   -23.015     0.152     9.600     0.169  -165.559
    10.100     0.694    67.330     1.734   -24.295     0.152     8.887     0.167  -167.533
    10.200     0.692    66.462     1.718   -25.586     0.152     8.022     0.166  -169.488
    10.300     0.701    65.711     1.697   -26.871     0.152     7.120     0.164  -171.604
    10.400     0.703    65.367     1.682   -27.882     0.152     6.297     0.162  -174.222
    10.500     0.709    64.374     1.667   -29.304     0.152     5.361     0.160  -176.369
    10.600     0.716    63.343     1.646   -30.607     0.152     4.622     0.159  -179.035
    10.700     0.717    62.589     1.633   -31.672     0.152     3.837     0.157   177.987
    10.800     0.718    61.481     1.620   -33.017     0.152     3.178     0.155   175.077
    10.900     0.728    60.536     1.596   -34.263     0.152     2.496     0.154   172.466
    11.000     0.727    58.872     1.583   -35.660     0.152     1.640     0.153   169.676
    11.100     0.732    58.526     1.560   -36.963     0.152     0.603     0.153   167.037
    11.200     0.744    57.422     1.549   -38.110     0.152    -0.300     0.153   164.266
    11.300     0.740    56.337     1.533   -39.416     0.151    -0.881     0.154   161.436
    11.400     0.750    54.944     1.512   -40.991     0.151    -1.803     0.156   158.078
    11.500     0.749    53.977     1.501   -42.235     0.151    -2.677     0.156   155.621
    11.600     0.757    53.165     1.484   -43.325     0.151    -3.441     0.158   152.775
    11.700     0.757    51.757     1.463   -44.866     0.151    -4.167     0.160   150.419
    11.800     0.763    50.971     1.450   -45.892     0.150    -5.223     0.162   147.854
    11.900     0.768    49.656     1.436   -47.141     0.150    -6.114     0.164   145.090
    12.000     0.772    48.730     1.425   -48.585     0.149    -6.989     0.166   142.734
    12.100     0.774    47.720     1.403   -49.767     0.149    -7.890     0.168   140.460
    12.200     0.773    46.680     1.381   -51.137     0.148    -8.634     0.170   138.512
    12.300     0.775    46.158     1.365   -52.308     0.147    -9.360     0.171   136.623
    12.400     0.782    45.288     1.359   -53.787     0.147   -10.317     0.174   134.495
    12.500     0.789    44.743     1.339   -54.704     0.147   -11.417     0.175   132.632
    12.600     0.789    43.614     1.322   -55.992     0.146   -12.325     0.178   130.997
    12.700     0.799    43.075     1.307   -57.429     0.146   -13.337     0.180   129.521
    12.800     0.799    42.323     1.296   -58.702     0.143   -14.275     0.183   127.867
    12.900     0.797    41.919     1.276   -59.919     0.143   -15.060     0.183   126.590
    13.000     0.805    41.532     1.263   -61.026     0.143   -15.658     0.183   125.224
    13.100     0.804    40.472     1.252   -62.491     0.141   -16.652     0.183   123.805
    13.200     0.807    40.546     1.234   -63.379     0.140   -17.249     0.183   122.616
    13.300     0.809    39.929     1.217   -64.690     0.139   -17.980     0.181   122.062
    13.400     0.809    38.977     1.209   -66.356     0.138   -18.783     0.182   121.308
    13.500     0.808    38.621     1.184   -67.198     0.137   -19.477     0.180   121.322
    13.600     0.814    38.355     1.178   -68.500     0.136   -20.043     0.182   120.817
    13.700     0.807    37.878     1.160   -69.273     0.136   -20.983     0.181   120.258
    13.800     0.814    37.099     1.147   -70.909     0.135   -21.531     0.180   119.512
    13.900     0.816    36.730     1.144   -71.466     0.134   -21.832     0.179   119.533
    14.000     0.814    36.328     1.132   -72.226     0.134   -22.730     0.181   119.094
    14.100     0.809    36.170     1.115   -74.084     0.133   -23.429     0.180   118.536
    14.200     0.813    35.242     1.113   -75.159     0.133   -23.881     0.180   118.025
    14.300     0.815    34.777     1.101   -76.787     0.133   -24.760     0.179   117.636
    14.400     0.814    34.606     1.085   -77.637     0.133   -25.223     0.178   117.160
    14.500     0.820    33.713     1.072   -78.448     0.132   -25.739     0.177   115.866
    14.600     0.827    33.406     1.065   -79.744     0.133   -26.070     0.175   115.062
    14.700     0.825    31.938     1.063   -80.810     0.134   -26.972     0.173   114.826
    14.800     0.817    31.578     1.056   -82.675     0.135   -28.042     0.170   114.954
    14.900     0.821    30.785     1.047   -83.534     0.135   -29.002     0.168   114.930
    15.000     0.817    30.316     1.033   -85.028     0.135   -30.141     0.168   114.953
    15.100     0.819    29.372     1.030   -86.085     0.136   -31.639     0.168   115.170
    15.200     0.818    29.091     1.020   -87.628     0.136   -32.567     0.168   114.442
    15.300     0.820    28.611     1.022   -88.826     0.136   -33.978     0.169   114.179
    15.400     0.810    28.159     1.011   -90.000     0.136   -35.683     0.170   114.064
    15.500     0.817    27.581     1.001   -91.825     0.135   -37.031     0.173   113.215
    15.600     0.815    26.818     1.004   -93.376     0.135   -38.565     0.176   112.145
    15.700     0.818    26.276     1.003   -95.052     0.134   -39.500     0.177   111.070
    15.800     0.817    25.286     0.980   -96.176     0.135   -40.641     0.180   109.662
    15.900     0.817    25.107     0.977   -97.768     0.134   -42.078     0.182   108.616
    16.000     0.816    24.369     0.969   -99.557     0.135   -43.192     0.183   107.285
    16.100     0.811    23.653     0.959  -100.968     0.134   -44.894     0.185   106.831
    16.200     0.808    22.755     0.954  -102.935     0.134   -46.382     0.190   105.895
    16.300     0.806    21.655     0.943  -104.452     0.134   -48.263     0.192   104.787
    16.400     0.802    21.464     0.933  -106.331     0.133   -50.193     0.197   103.133
    16.500     0.799    20.884     0.923  -107.214     0.131   -52.150     0.200   102.095
    16.600     0.791    19.848     0.915  -109.215     0.130   -53.980     0.202   101.908
    16.700     0.784    19.185     0.903  -110.715     0.129   -55.656     0.207   100.942
    16.800     0.789    18.257     0.901  -112.577     0.127   -57.330     0.211    99.765
    16.900     0.786    17.586     0.899  -113.931     0.126   -58.937     0.216    99.177
    17.000     0.774    16.147     0.883  -115.885     0.124   -60.259     0.216    98.374
    17.100     0.771    16.032     0.875  -117.632     0.122   -61.741     0.218    97.875
    17.200     0.775    14.809     0.867  -119.440     0.121   -62.850     0.219    97.643
    17.300     0.776    13.990     0.853  -120.906     0.122   -64.330     0.217    98.127
    17.400     0.763    12.324     0.847  -122.741     0.120   -65.777     0.222    98.903
    17.500     0.763    10.959     0.840  -124.564     0.121   -67.362     0.226    99.510
    17.600     0.750     9.818     0.834  -126.662     0.119   -69.799     0.230    99.664
    17.700     0.741     8.722     0.812  -128.336     0.119   -71.438     0.231   100.282
    17.800     0.743     7.436     0.812  -130.185     0.119   -73.223     0.235   100.687
    17.900     0.734     6.298     0.798  -132.063     0.117   -75.449     0.236   101.034
    18.000     0.724     4.913     0.794  -133.610     0.118   -76.940     0.239   101.880
    18.100     0.716     4.148     0.789  -135.597     0.118   -79.006     0.240   102.053
    18.200     0.705     3.227     0.771  -137.394     0.120   -82.005     0.245   101.981
    18.300     0.703     2.307     0.770  -139.614     0.120   -86.041     0.246   102.686
    18.400     0.693     1.575     0.779  -141.219     0.120   -89.333     0.247   103.547
    18.500     0.687     0.661     0.767  -143.080     0.117   -92.911     0.251   103.433
    18.600     0.677     0.594     0.752  -146.026     0.115   -96.399     0.253   102.795
    18.700     0.665     0.416     0.747  -148.825     0.112   -99.254     0.253   102.392
    18.800     0.659     0.183     0.741  -150.948     0.110  -102.616     0.254   102.045
    18.900     0.655    -0.299     0.722  -152.459     0.108  -105.013     0.252   102.189
    19.000     0.649    -0.315     0.718  -154.297     0.106  -107.703     0.253   102.201
    19.100     0.646    -1.362     0.699  -156.826     0.105  -110.866     0.251   102.486
    19.200     0.638    -0.888     0.692  -159.629     0.105  -113.631     0.254   102.447
    19.300     0.637    -0.945     0.674  -161.260     0.105  -116.774     0.253   102.937
    19.400     0.638    -1.605     0.666  -163.476     0.106  -119.266     0.254   102.833
    19.500     0.637    -2.337     0.658  -165.670     0.107  -122.823     0.253   103.120
    19.600     0.624    -1.699     0.658  -166.957     0.109  -126.462     0.255   102.868
    19.700     0.622    -1.970     0.654  -169.705     0.111  -130.977     0.258   103.179
    19.800     0.618    -2.559     0.644  -171.264     0.114  -135.385     0.261   102.905
    19.900     0.610    -3.063     0.640  -174.808     0.117  -140.186     0.266   102.831
    20.000     0.607    -3.695     0.635  -176.895     0.122  -145.440     0.274   102.495
